
T1760 000:087 SEGGER J-Link V6.30h Log File (0000ms, 0046ms total)
T1760 000:087 DLL Compiled: Mar 16 2018 18:02:51 (0000ms, 0046ms total)
T1760 000:087 Logging started @ 2021-07-05 15:30 (0000ms, 0046ms total)
T1760 000:087 JLINK_SetWarnOutHandler(...) (0000ms, 0046ms total)
T1760 000:087 JLINK_OpenEx(...)
Firmware: J-Link V9 compiled May  7 2021 16:26:12
Hardware: V9.40
S/N: 59401576
Feature(s): RDI, GDB, FlashDL, FlashBP, JFlash
TELNET listener socket opened on port 19021WEBSRV 
Starting webserver (0025ms, 0071ms total)
T1760 000:087 WEBSRV Webserver running on local port 19080 (0025ms, 0071ms total)
T1760 000:087   returns O.K. (0025ms, 0071ms total)
T1760 000:112 JLINK_GetEmuCaps()  returns 0xB9FF7BBF (0000ms, 0071ms total)
T1760 000:112 JLINK_TIF_GetAvailable(...) (0001ms, 0072ms total)
T1760 000:113 JLINK_SetErrorOutHandler(...) (0000ms, 0072ms total)
T1760 000:113 JLINK_ExecCommand("ProjectFile = "F:\JK5530L_407\Project\JLinkSettings.ini"", ...).   returns 0x00 (0075ms, 0147ms total)
T1760 000:193 JLINK_ExecCommand("Device = STM32F407VE", ...). Device "STM32F407VE" selected.  returns 0x00 (0008ms, 0155ms total)
T1760 000:201 JLINK_ExecCommand("DisableConnectionTimeout", ...).   returns 0x01 (0000ms, 0155ms total)
T1760 000:201 JLINK_GetHardwareVersion()  returns 0x16F30 (0000ms, 0155ms total)
T1760 000:201 JLINK_GetDLLVersion()  returns 63008 (0000ms, 0155ms total)
T1760 000:201 JLINK_GetFirmwareString(...) (0000ms, 0155ms total)
T1760 000:218 JLINK_GetDLLVersion()  returns 63008 (0000ms, 0155ms total)
T1760 000:218 JLINK_GetCompileDateTime() (0000ms, 0155ms total)
T1760 000:224 JLINK_GetFirmwareString(...) (0000ms, 0155ms total)
T1760 000:230 JLINK_GetHardwareVersion()  returns 0x16F30 (0000ms, 0155ms total)
T1760 000:259 JLINK_TIF_Select(JLINKARM_TIF_SWD)  returns 0x00 (0004ms, 0159ms total)
T1760 000:263 JLINK_SetSpeed(2000) (0001ms, 0160ms total)
T1760 000:264 JLINK_GetId() >0x10B TIF>Found SW-DP with ID 0x2BA01477 >0x0D TIF> >0x28 TIF> >0x0D TIF> >0x28 TIF> >0x0D TIF> >0x28 TIF> >0x0D TIF> >0x28 TIF> >0x0D TIF> >0x21 TIF> >0x0D TIF> >0x28 TIF> >0x0D TIF> >0x28 TIF> >0x0D TIF> >0x28 TIF> >0x0D TIF> >0x21 TIF> >0x0D TIF> >0x21 TIF> >0x0D TIF> >0x28 TIF> >0x0D TIF> >0x21 TIF> >0x0D TIF> >0x21 TIF> >0x0D TIF> >0x28 TIF> >0x0D TIF> >0x21 TIF> >0x0D TIF> >0x21 TIF> >0x0D TIF> >0x28 TIF> >0x0D TIF> >0x21 TIF> >0x0D TIF> >0x21 TIF> >0x0D TIF> >0x28 TIF>
 >0x0D TIF> >0x21 TIF> >0x0D TIF> >0x21 TIF> >0x0D TIF> >0x28 TIF> >0x0D TIF> >0x21 TIF> >0x0D TIF> >0x21 TIF> >0x10B TIF>Found SW-DP with ID 0x2BA01477 >0x0D TIF> >0x28 TIF> >0x0D TIF> >0x28 TIF> >0x0D TIF> >0x28 TIF> >0x0D TIF> >0x28 TIF> >0x0D TIF> >0x21 TIF> >0x0D TIF> >0x28 TIF>Scanning AP map to find all available APs >0x0D TIF> >0x28 TIF> >0x0D TIF> >0x21 TIF> >0x0D TIF> >0x21 TIF> >0x0D TIF> >0x28 TIF> >0x0D TIF> >0x21 TIF> >0x0D TIF> >0x21 TIF>
AP[1]: Stopped AP scan as end of AP map has been reachedAP[0]: AHB-AP (IDR: 0x24770011)Iterating through AP map to find AHB-AP to use >0x42 TIF> >0x28 TIF> >0x0D TIF> >0x28 TIF> >0x0D TIF> >0x21 TIF> >0x0D TIF> >0x21 TIF> >0x42 TIF> >0x28 TIF> >0x0D TIF> >0x28 TIF> >0x0D TIF> >0x28 TIF> >0x0D TIF> >0x21 TIF> >0x0D TIF> >0x21 TIF>AP[0]: Core foundAP[0]: AHB-AP ROM base: 0xE00FF000 >0x0D TIF> >0x28 TIF> >0x0D TIF> >0x28 TIF> >0x0D TIF> >0x28 TIF> >0x0D TIF> >0x21 TIF> >0x0D TIF> >0x21 TIF>
CPUID register: 0x410FC241. Implementer code: 0x41 (ARM)Found Cortex-M4 r0p1, Little endian. -- CPU_ReadMem(4 bytes @ 0xE000EDF0) -- CPU_WriteMem(4 bytes @ 0xE000EDF0) -- CPU_ReadMem(4 bytes @ 0xE0002000)FPUnit: 6 code (BP) slots and 2 literal slots -- CPU_ReadMem(4 bytes @ 0xE000EDFC) -- CPU_WriteMem(4 bytes @ 0xE000EDFC) -- CPU_ReadMem(4 bytes @ 0xE0001000) -- CPU_WriteMem(4 bytes @ 0xE0001000) -- CPU_ReadMem(4 bytes @ 0xE000ED88) -- CPU_WriteMem(4 bytes @ 0xE000ED88)
 -- CPU_ReadMem(4 bytes @ 0xE000ED88) -- CPU_WriteMem(4 bytes @ 0xE000ED88)CoreSight components:ROMTbl[0] @ E00FF000 -- CPU_ReadMem(16 bytes @ 0xE00FF000) -- CPU_ReadMem(16 bytes @ 0xE000EFF0) -- CPU_ReadMem(16 bytes @ 0xE000EFE0)ROMTbl[0][0]: E000E000, CID: B105E00D, PID: 000BB00C SCS-M7 -- CPU_ReadMem(16 bytes @ 0xE0001FF0) -- CPU_ReadMem(16 bytes @ 0xE0001FE0)ROMTbl[0][1]: E0001000, CID: B105E00D, PID: 003BB002 DWT -- CPU_ReadMem(16 bytes @ 0xE0002FF0) -- CPU_ReadMem(16 bytes @ 0xE0002FE0)
ROMTbl[0][2]: E0002000, CID: B105E00D, PID: 002BB003 FPB -- CPU_ReadMem(16 bytes @ 0xE0000FF0) -- CPU_ReadMem(16 bytes @ 0xE0000FE0)ROMTbl[0][3]: E0000000, CID: B105E00D, PID: 003BB001 ITM -- CPU_ReadMem(16 bytes @ 0xE00FF010) -- CPU_ReadMem(16 bytes @ 0xE0040FF0) -- CPU_ReadMem(16 bytes @ 0xE0040FE0)ROMTbl[0][4]: E0040000, CID: B105900D, PID: 000BB9A1 TPIU -- CPU_ReadMem(16 bytes @ 0xE0041FF0) -- CPU_ReadMem(16 bytes @ 0xE0041FE0)ROMTbl[0][5]: E0041000, CID: B105900D, PID: 000BB925 ETM >0x0D TIF>
 >0x21 TIF>  returns 0x2BA01477 (0497ms, 0657ms total)
T1760 000:761 JLINK_GetDLLVersion()  returns 63008 (0000ms, 0657ms total)
T1760 000:761 JLINK_CORE_GetFound()  returns 0xE0000FF (0000ms, 0657ms total)
T1760 000:761 JLINK_GetDebugInfo(0x100 = JLINKARM_ROM_TABLE_ADDR_INDEX) -- Value=0xE00FF000  returns 0x00 (0000ms, 0657ms total)
T1760 000:769 JLINK_GetDebugInfo(0x100 = JLINKARM_ROM_TABLE_ADDR_INDEX) -- Value=0xE00FF000  returns 0x00 (0000ms, 0657ms total)
T1760 000:769 JLINK_GetDebugInfo(0x101 = JLINKARM_DEBUG_INFO_ETM_ADDR_INDEX) -- Value=0xE0041000  returns 0x00 (0000ms, 0657ms total)
T1760 000:769 JLINK_ReadMemEx(0xE0041FD0, 0x0020 Bytes, ..., Flags = 0x02000004) -- CPU_ReadMem(32 bytes @ 0xE0041FD0) - Data: 04 00 00 00 00 00 00 00 00 00 00 00 00 00 00 00 ...  returns 0x20 (0002ms, 0659ms total)
T1760 000:771 JLINK_GetDebugInfo(0x102 = JLINKARM_DEBUG_INFO_MTB_ADDR_INDEX) -- Value=0x00000000  returns 0x00 (0000ms, 0659ms total)
T1760 000:771 JLINK_GetDebugInfo(0x103 = JLINKARM_DEBUG_INFO_TPIU_ADDR_INDEX) -- Value=0xE0040000  returns 0x00 (0000ms, 0659ms total)
T1760 000:771 JLINK_GetDebugInfo(0x104 = JLINKARM_DEBUG_INFO_ITM_ADDR_INDEX) -- Value=0xE0000000  returns 0x00 (0000ms, 0659ms total)
T1760 000:771 JLINK_GetDebugInfo(0x105 = JLINKARM_DEBUG_INFO_DWT_ADDR_INDEX) -- Value=0xE0001000  returns 0x00 (0000ms, 0659ms total)
T1760 000:771 JLINK_GetDebugInfo(0x106 = JLINKARM_DEBUG_INFO_FPB_ADDR_INDEX) -- Value=0xE0002000  returns 0x00 (0000ms, 0659ms total)
T1760 000:771 JLINK_GetDebugInfo(0x107 = JLINKARM_DEBUG_INFO_NVIC_ADDR_INDEX) -- Value=0xE000E000  returns 0x00 (0000ms, 0659ms total)
T1760 000:771 JLINK_GetDebugInfo(0x10C = JLINKARM_DEBUG_INFO_DBG_ADDR_INDEX) -- Value=0xE000EDF0  returns 0x00 (0000ms, 0659ms total)
T1760 000:771 JLINK_GetDebugInfo(0x01 = Unknown) -- Value=0x00000001  returns 0x00 (0000ms, 0659ms total)
T1760 000:771 JLINK_ReadMemU32(0xE000ED00, 0x0001 Items, ...) -- CPU_ReadMem(4 bytes @ 0xE000ED00) - Data: 41 C2 0F 41  returns 0x01 (0001ms, 0660ms total)
T1760 000:772 JLINK_GetDebugInfo(0x10F = JLINKARM_DEBUG_INFO_HAS_CORTEX_M_SECURITY_EXT_INDEX) -- Value=0x00000000  returns 0x00 (0000ms, 0660ms total)
T1760 000:772 JLINK_SetResetType(JLINKARM_CM3_RESET_TYPE_NORMAL)  returns JLINKARM_CM3_RESET_TYPE_NORMAL (0000ms, 0660ms total)
T1760 000:772 JLINK_Reset() -- CPU is running -- CPU_WriteMem(4 bytes @ 0xE000EDF0) -- CPU is running -- CPU_WriteMem(4 bytes @ 0xE000EDFC)Reset: Halt core after reset via DEMCR.VC_CORERESET. >0x35 TIF>Reset: Reset device via AIRCR.SYSRESETREQ. -- CPU is running -- CPU_WriteMem(4 bytes @ 0xE000ED0C) >0x0D TIF> >0x28 TIF> -- CPU_ReadMem(4 bytes @ 0xE000EDF0) -- CPU_ReadMem(4 bytes @ 0xE000EDF0) -- CPU is running -- CPU_WriteMem(4 bytes @ 0xE000EDF0) -- CPU is running -- CPU_WriteMem(4 bytes @ 0xE000EDFC)
 -- CPU_ReadMem(4 bytes @ 0xE000EDF0) -- CPU_WriteMem(4 bytes @ 0xE0002000) -- CPU_ReadMem(4 bytes @ 0xE000EDFC) -- CPU_ReadMem(4 bytes @ 0xE0001000) (0091ms, 0751ms total)
T1760 000:863 JLINK_Halt()  returns 0x00 (0000ms, 0751ms total)
T1760 000:863 JLINK_ReadMemU32(0xE000EDF0, 0x0001 Items, ...) -- CPU_ReadMem(4 bytes @ 0xE000EDF0) - Data: 03 00 03 00  returns 0x01 (0001ms, 0752ms total)
T1760 000:864 JLINK_WriteU32(0xE000EDF0, 0xA05F0003) -- CPU_WriteMem(4 bytes @ 0xE000EDF0)  returns 0x00 (0001ms, 0753ms total)
T1760 000:865 JLINK_WriteU32(0xE000EDFC, 0x01000000) -- CPU_WriteMem(4 bytes @ 0xE000EDFC)  returns 0x00 (0001ms, 0754ms total)
T1760 000:900 JLINK_GetHWStatus(...)  returns 0x00 (0001ms, 0755ms total)
T1760 000:932 JLINK_GetNumBPUnits(Type = 0xFFFFFF00)  returns 0x06 (0000ms, 0755ms total)
T1760 000:932 JLINK_GetNumBPUnits(Type = 0xF0)  returns 0x2000 (0000ms, 0755ms total)
T1760 000:932 JLINK_GetNumWPUnits()  returns 0x04 (0000ms, 0755ms total)
T1760 000:960 JLINK_GetSpeed()  returns 0x7D0 (0000ms, 0755ms total)
T1760 000:977 JLINK_ReadMemU32(0xE000E004, 0x0001 Items, ...) -- CPU_ReadMem(4 bytes @ 0xE000E004) - Data: 02 00 00 00  returns 0x01 (0001ms, 0756ms total)
T1760 000:978 JLINK_ReadMemU32(0xE000E004, 0x0001 Items, ...) -- CPU_ReadMem(4 bytes @ 0xE000E004) - Data: 02 00 00 00  returns 0x01 (0002ms, 0758ms total)
T1760 000:980 JLINK_WriteMemEx(0xE0001000, 0x001C Bytes, ..., Flags = 0x02000004) - Data: 01 00 00 00 00 00 00 00 00 00 00 00 00 00 00 00 ... -- CPU_WriteMem(28 bytes @ 0xE0001000)  returns 0x1C (0002ms, 0760ms total)
T1760 000:982 JLINK_Halt()  returns 0x00 (0000ms, 0760ms total)
T1760 000:982 JLINK_IsHalted()  returns TRUE (0000ms, 0760ms total)
T1760 000:984 JLINK_WriteMem(0x20000000, 0x0180 Bytes, ...) - Data: 00 BE 0A E0 0D 78 2D 06 68 40 08 24 40 00 00 D3 ... -- CPU_WriteMem(384 bytes @ 0x20000000)  returns 0x180 (0004ms, 0764ms total)
T1760 000:988 JLINK_WriteReg(R0, 0x08000000)  returns 0x00 (0000ms, 0764ms total)
T1760 000:988 JLINK_WriteReg(R1, 0x017D7840)  returns 0x00 (0000ms, 0764ms total)
T1760 000:988 JLINK_WriteReg(R2, 0x00000001)  returns 0x00 (0000ms, 0764ms total)
T1760 000:988 JLINK_WriteReg(R3, 0x00000000)  returns 0x00 (0000ms, 0764ms total)
T1760 000:988 JLINK_WriteReg(R4, 0x00000000)  returns 0x00 (0000ms, 0764ms total)
T1760 000:988 JLINK_WriteReg(R5, 0x00000000)  returns 0x00 (0000ms, 0764ms total)
T1760 000:988 JLINK_WriteReg(R6, 0x00000000)  returns 0x00 (0000ms, 0764ms total)
T1760 000:988 JLINK_WriteReg(R7, 0x00000000)  returns 0x00 (0000ms, 0764ms total)
T1760 000:988 JLINK_WriteReg(R8, 0x00000000)  returns 0x00 (0000ms, 0764ms total)
T1760 000:988 JLINK_WriteReg(R9, 0x2000017C)  returns 0x00 (0000ms, 0764ms total)
T1760 000:988 JLINK_WriteReg(R10, 0x00000000)  returns 0x00 (0000ms, 0764ms total)
T1760 000:988 JLINK_WriteReg(R11, 0x00000000)  returns 0x00 (0000ms, 0764ms total)
T1760 000:988 JLINK_WriteReg(R12, 0x00000000)  returns 0x00 (0000ms, 0764ms total)
T1760 000:988 JLINK_WriteReg(R13 (SP), 0x20000800)  returns 0x00 (0000ms, 0764ms total)
T1760 000:988 JLINK_WriteReg(R14, 0x20000001)  returns 0x00 (0000ms, 0764ms total)
T1760 000:988 JLINK_WriteReg(R15 (PC), 0x20000054)  returns 0x00 (0000ms, 0764ms total)
T1760 000:988 JLINK_WriteReg(XPSR, 0x01000000)  returns 0x00 (0000ms, 0764ms total)
T1760 000:988 JLINK_WriteReg(MSP, 0x20000800)  returns 0x00 (0000ms, 0764ms total)
T1760 000:988 JLINK_WriteReg(PSP, 0x20000800)  returns 0x00 (0000ms, 0764ms total)
T1760 000:988 JLINK_WriteReg(CFBP, 0x00000000)  returns 0x00 (0000ms, 0764ms total)
T1760 000:988 JLINK_SetBPEx(Addr = 0x20000000, Type = 0xFFFFFFF2) -- CPU_ReadMem(2 bytes @ 0x20000000)  returns 0x00000001 (0001ms, 0765ms total)
T1760 000:989 JLINK_Go() -- CPU_WriteMem(2 bytes @ 0x20000000) -- CPU_ReadMem(4 bytes @ 0xE0001000) -- CPU_WriteMem(4 bytes @ 0xE0002008) -- CPU_WriteMem(4 bytes @ 0xE000200C) -- CPU_WriteMem(4 bytes @ 0xE0002010) -- CPU_WriteMem(4 bytes @ 0xE0002014) -- CPU_WriteMem(4 bytes @ 0xE0002018) -- CPU_WriteMem(4 bytes @ 0xE000201C) -- CPU_WriteMem(4 bytes @ 0xE0001004) (0008ms, 0773ms total)
T1760 000:997 JLINK_IsHalted() -- CPU_ReadMem(2 bytes @ 0x20000000)  returns TRUE (0005ms, 0778ms total)
T1760 001:002 JLINK_ReadReg(R15 (PC))  returns 0x20000000 (0000ms, 0773ms total)
T1760 001:002 JLINK_ClrBPEx(BPHandle = 0x00000001)  returns 0x00 (0000ms, 0773ms total)
T1760 001:002 JLINK_ReadReg(R0)  returns 0x00000000 (0000ms, 0773ms total)
T1760 001:002 JLINK_WriteReg(R0, 0x08020000)  returns 0x00 (0000ms, 0773ms total)
T1760 001:002 JLINK_WriteReg(R1, 0x00020000)  returns 0x00 (0000ms, 0773ms total)
T1760 001:002 JLINK_WriteReg(R2, 0x000000FF)  returns 0x00 (0000ms, 0773ms total)
T1760 001:002 JLINK_WriteReg(R3, 0x00000000)  returns 0x00 (0000ms, 0773ms total)
T1760 001:002 JLINK_WriteReg(R4, 0x00000000)  returns 0x00 (0000ms, 0773ms total)
T1760 001:002 JLINK_WriteReg(R5, 0x00000000)  returns 0x00 (0000ms, 0773ms total)
T1760 001:002 JLINK_WriteReg(R6, 0x00000000)  returns 0x00 (0000ms, 0773ms total)
T1760 001:002 JLINK_WriteReg(R7, 0x00000000)  returns 0x00 (0000ms, 0773ms total)
T1760 001:002 JLINK_WriteReg(R8, 0x00000000)  returns 0x00 (0000ms, 0773ms total)
T1760 001:002 JLINK_WriteReg(R9, 0x2000017C)  returns 0x00 (0000ms, 0773ms total)
T1760 001:002 JLINK_WriteReg(R10, 0x00000000)  returns 0x00 (0000ms, 0773ms total)
T1760 001:002 JLINK_WriteReg(R11, 0x00000000)  returns 0x00 (0000ms, 0773ms total)
T1760 001:002 JLINK_WriteReg(R12, 0x00000000)  returns 0x00 (0000ms, 0773ms total)
T1760 001:002 JLINK_WriteReg(R13 (SP), 0x20000800)  returns 0x00 (0000ms, 0773ms total)
T1760 001:002 JLINK_WriteReg(R14, 0x20000001)  returns 0x00 (0000ms, 0773ms total)
T1760 001:002 JLINK_WriteReg(R15 (PC), 0x20000020)  returns 0x00 (0000ms, 0773ms total)
T1760 001:002 JLINK_WriteReg(XPSR, 0x01000000)  returns 0x00 (0000ms, 0773ms total)
T1760 001:002 JLINK_WriteReg(MSP, 0x20000800)  returns 0x00 (0000ms, 0773ms total)
T1760 001:002 JLINK_WriteReg(PSP, 0x20000800)  returns 0x00 (0000ms, 0773ms total)
T1760 001:002 JLINK_WriteReg(CFBP, 0x00000000)  returns 0x00 (0000ms, 0773ms total)
T1760 001:002 JLINK_SetBPEx(Addr = 0x20000000, Type = 0xFFFFFFF2)  returns 0x00000002 (0000ms, 0773ms total)
T1760 001:002 JLINK_Go() -- CPU_ReadMem(4 bytes @ 0xE0001000) (0003ms, 0776ms total)
T1760 001:005 JLINK_IsHalted()  returns FALSE (0001ms, 0777ms total)
T1760 001:058 JLINK_IsHalted()  returns FALSE (0001ms, 0777ms total)
T1760 001:060 JLINK_IsHalted()  returns FALSE (0001ms, 0777ms total)
T1760 001:062 JLINK_IsHalted()  returns FALSE (0001ms, 0777ms total)
T1760 001:070 JLINK_IsHalted()  returns FALSE (0001ms, 0777ms total)
T1760 001:072 JLINK_IsHalted()  returns FALSE (0001ms, 0777ms total)
T1760 001:074 JLINK_IsHalted()  returns FALSE (0001ms, 0777ms total)
T1760 001:076 JLINK_IsHalted()  returns FALSE (0001ms, 0777ms total)
T1760 001:078 JLINK_IsHalted()  returns FALSE (0001ms, 0777ms total)
T1760 001:080 JLINK_IsHalted()  returns FALSE (0001ms, 0777ms total)
T1760 001:086 JLINK_IsHalted()  returns FALSE (0001ms, 0777ms total)
T1760 001:088 JLINK_IsHalted()  returns FALSE (0001ms, 0777ms total)
T1760 001:090 JLINK_IsHalted()  returns FALSE (0001ms, 0777ms total)
T1760 001:092 JLINK_IsHalted()  returns FALSE (0001ms, 0777ms total)
T1760 001:094 JLINK_IsHalted()  returns FALSE (0001ms, 0777ms total)
T1760 001:096 JLINK_IsHalted()  returns FALSE (0001ms, 0777ms total)
T1760 001:100 JLINK_IsHalted()  returns FALSE (0001ms, 0777ms total)
T1760 001:102 JLINK_IsHalted()  returns FALSE (0001ms, 0777ms total)
T1760 001:104 JLINK_IsHalted()  returns FALSE (0001ms, 0777ms total)
T1760 001:106 JLINK_IsHalted()  returns FALSE (0001ms, 0777ms total)
T1760 001:108 JLINK_IsHalted()  returns FALSE (0001ms, 0777ms total)
T1760 001:110 JLINK_IsHalted()  returns FALSE (0001ms, 0777ms total)
T1760 001:112 JLINK_IsHalted()  returns FALSE (0001ms, 0777ms total)
T1760 001:114 JLINK_IsHalted()  returns FALSE (0001ms, 0777ms total)
T1760 001:118 JLINK_IsHalted()  returns FALSE (0001ms, 0777ms total)
T1760 001:120 JLINK_IsHalted() -- CPU_ReadMem(2 bytes @ 0x20000000)  returns TRUE (0005ms, 0781ms total)
T1760 001:125 JLINK_ReadReg(R15 (PC))  returns 0x20000000 (0000ms, 0776ms total)
T1760 001:126 JLINK_ClrBPEx(BPHandle = 0x00000002)  returns 0x00 (0000ms, 0776ms total)
T1760 001:126 JLINK_ReadReg(R0)  returns 0x00000000 (0000ms, 0776ms total)
T1760 001:126 JLINK_WriteReg(R0, 0x00000001)  returns 0x00 (0000ms, 0776ms total)
T1760 001:126 JLINK_WriteReg(R1, 0x00020000)  returns 0x00 (0000ms, 0776ms total)
T1760 001:126 JLINK_WriteReg(R2, 0x000000FF)  returns 0x00 (0000ms, 0776ms total)
T1760 001:126 JLINK_WriteReg(R3, 0x00000000)  returns 0x00 (0000ms, 0776ms total)
T1760 001:126 JLINK_WriteReg(R4, 0x00000000)  returns 0x00 (0000ms, 0776ms total)
T1760 001:126 JLINK_WriteReg(R5, 0x00000000)  returns 0x00 (0000ms, 0776ms total)
T1760 001:126 JLINK_WriteReg(R6, 0x00000000)  returns 0x00 (0000ms, 0776ms total)
T1760 001:126 JLINK_WriteReg(R7, 0x00000000)  returns 0x00 (0000ms, 0776ms total)
T1760 001:126 JLINK_WriteReg(R8, 0x00000000)  returns 0x00 (0000ms, 0776ms total)
T1760 001:126 JLINK_WriteReg(R9, 0x2000017C)  returns 0x00 (0000ms, 0776ms total)
T1760 001:126 JLINK_WriteReg(R10, 0x00000000)  returns 0x00 (0000ms, 0776ms total)
T1760 001:126 JLINK_WriteReg(R11, 0x00000000)  returns 0x00 (0000ms, 0776ms total)
T1760 001:126 JLINK_WriteReg(R12, 0x00000000)  returns 0x00 (0000ms, 0776ms total)
T1760 001:126 JLINK_WriteReg(R13 (SP), 0x20000800)  returns 0x00 (0000ms, 0776ms total)
T1760 001:126 JLINK_WriteReg(R14, 0x20000001)  returns 0x00 (0000ms, 0776ms total)
T1760 001:126 JLINK_WriteReg(R15 (PC), 0x20000082)  returns 0x00 (0000ms, 0776ms total)
T1760 001:126 JLINK_WriteReg(XPSR, 0x01000000)  returns 0x00 (0000ms, 0776ms total)
T1760 001:126 JLINK_WriteReg(MSP, 0x20000800)  returns 0x00 (0000ms, 0776ms total)
T1760 001:126 JLINK_WriteReg(PSP, 0x20000800)  returns 0x00 (0000ms, 0776ms total)
T1760 001:126 JLINK_WriteReg(CFBP, 0x00000000)  returns 0x00 (0000ms, 0776ms total)
T1760 001:126 JLINK_SetBPEx(Addr = 0x20000000, Type = 0xFFFFFFF2)  returns 0x00000003 (0000ms, 0776ms total)
T1760 001:126 JLINK_Go() -- CPU_ReadMem(4 bytes @ 0xE0001000) (0003ms, 0779ms total)
T1760 001:129 JLINK_IsHalted() -- CPU_ReadMem(2 bytes @ 0x20000000)  returns TRUE (0005ms, 0784ms total)
T1760 001:134 JLINK_ReadReg(R15 (PC))  returns 0x20000000 (0000ms, 0779ms total)
T1760 001:134 JLINK_ClrBPEx(BPHandle = 0x00000003)  returns 0x00 (0000ms, 0779ms total)
T1760 001:134 JLINK_ReadReg(R0)  returns 0x00000000 (0000ms, 0779ms total)
T1760 001:197 JLINK_WriteMem(0x20000000, 0x0180 Bytes, ...) - Data: 00 BE 0A E0 0D 78 2D 06 68 40 08 24 40 00 00 D3 ... -- CPU_WriteMem(384 bytes @ 0x20000000)  returns 0x180 (0003ms, 0782ms total)
T1760 001:200 JLINK_WriteReg(R0, 0x08000000)  returns 0x00 (0000ms, 0782ms total)
T1760 001:200 JLINK_WriteReg(R1, 0x017D7840)  returns 0x00 (0000ms, 0782ms total)
T1760 001:200 JLINK_WriteReg(R2, 0x00000002)  returns 0x00 (0000ms, 0782ms total)
T1760 001:200 JLINK_WriteReg(R3, 0x00000000)  returns 0x00 (0000ms, 0782ms total)
T1760 001:200 JLINK_WriteReg(R4, 0x00000000)  returns 0x00 (0000ms, 0782ms total)
T1760 001:200 JLINK_WriteReg(R5, 0x00000000)  returns 0x00 (0000ms, 0782ms total)
T1760 001:200 JLINK_WriteReg(R6, 0x00000000)  returns 0x00 (0000ms, 0782ms total)
T1760 001:200 JLINK_WriteReg(R7, 0x00000000)  returns 0x00 (0000ms, 0782ms total)
T1760 001:200 JLINK_WriteReg(R8, 0x00000000)  returns 0x00 (0000ms, 0782ms total)
T1760 001:200 JLINK_WriteReg(R9, 0x2000017C)  returns 0x00 (0000ms, 0782ms total)
T1760 001:200 JLINK_WriteReg(R10, 0x00000000)  returns 0x00 (0000ms, 0782ms total)
T1760 001:200 JLINK_WriteReg(R11, 0x00000000)  returns 0x00 (0000ms, 0782ms total)
T1760 001:200 JLINK_WriteReg(R12, 0x00000000)  returns 0x00 (0000ms, 0782ms total)
T1760 001:200 JLINK_WriteReg(R13 (SP), 0x20000800)  returns 0x00 (0000ms, 0782ms total)
T1760 001:200 JLINK_WriteReg(R14, 0x20000001)  returns 0x00 (0000ms, 0782ms total)
T1760 001:200 JLINK_WriteReg(R15 (PC), 0x20000054)  returns 0x00 (0000ms, 0782ms total)
T1760 001:200 JLINK_WriteReg(XPSR, 0x01000000)  returns 0x00 (0001ms, 0783ms total)
T1760 001:201 JLINK_WriteReg(MSP, 0x20000800)  returns 0x00 (0000ms, 0783ms total)
T1760 001:201 JLINK_WriteReg(PSP, 0x20000800)  returns 0x00 (0000ms, 0783ms total)
T1760 001:201 JLINK_WriteReg(CFBP, 0x00000000)  returns 0x00 (0000ms, 0783ms total)
T1760 001:201 JLINK_SetBPEx(Addr = 0x20000000, Type = 0xFFFFFFF2) -- CPU_ReadMem(2 bytes @ 0x20000000)  returns 0x00000004 (0000ms, 0783ms total)
T1760 001:201 JLINK_Go() -- CPU_WriteMem(2 bytes @ 0x20000000) -- CPU_ReadMem(4 bytes @ 0xE0001000) (0005ms, 0788ms total)
T1760 001:206 JLINK_IsHalted() -- CPU_ReadMem(2 bytes @ 0x20000000)  returns TRUE (0006ms, 0794ms total)
T1760 001:212 JLINK_ReadReg(R15 (PC))  returns 0x20000000 (0000ms, 0788ms total)
T1760 001:212 JLINK_ClrBPEx(BPHandle = 0x00000004)  returns 0x00 (0000ms, 0788ms total)
T1760 001:212 JLINK_ReadReg(R0)  returns 0x00000000 (0000ms, 0788ms total)
T1760 001:213 JLINK_WriteMem(0x20000180, 0x0280 Bytes, ...) - Data: 28 17 00 20 89 02 02 08 3B 3A 02 08 83 2D 02 08 ... -- CPU_WriteMem(640 bytes @ 0x20000180)  returns 0x280 (0005ms, 0793ms total)
T1760 001:218 JLINK_WriteMem(0x20000400, 0x0180 Bytes, ...) - Data: 03 BC 00 F0 E7 FE 00 00 09 48 80 47 09 48 00 47 ... -- CPU_WriteMem(384 bytes @ 0x20000400)  returns 0x180 (0003ms, 0796ms total)
T1760 001:221 JLINK_WriteReg(R0, 0x08020000)  returns 0x00 (0000ms, 0796ms total)
T1760 001:221 JLINK_WriteReg(R1, 0x00000400)  returns 0x00 (0000ms, 0796ms total)
T1760 001:221 JLINK_WriteReg(R2, 0x20000180)  returns 0x00 (0000ms, 0796ms total)
T1760 001:221 JLINK_WriteReg(R3, 0x00000000)  returns 0x00 (0000ms, 0796ms total)
T1760 001:221 JLINK_WriteReg(R4, 0x00000000)  returns 0x00 (0000ms, 0796ms total)
T1760 001:221 JLINK_WriteReg(R5, 0x00000000)  returns 0x00 (0000ms, 0796ms total)
T1760 001:221 JLINK_WriteReg(R6, 0x00000000)  returns 0x00 (0000ms, 0796ms total)
T1760 001:221 JLINK_WriteReg(R7, 0x00000000)  returns 0x00 (0000ms, 0796ms total)
T1760 001:221 JLINK_WriteReg(R8, 0x00000000)  returns 0x00 (0000ms, 0796ms total)
T1760 001:221 JLINK_WriteReg(R9, 0x2000017C)  returns 0x00 (0000ms, 0796ms total)
T1760 001:221 JLINK_WriteReg(R10, 0x00000000)  returns 0x00 (0000ms, 0796ms total)
T1760 001:221 JLINK_WriteReg(R11, 0x00000000)  returns 0x00 (0000ms, 0796ms total)
T1760 001:221 JLINK_WriteReg(R12, 0x00000000)  returns 0x00 (0000ms, 0796ms total)
T1760 001:221 JLINK_WriteReg(R13 (SP), 0x20000800)  returns 0x00 (0000ms, 0796ms total)
T1760 001:221 JLINK_WriteReg(R14, 0x20000001)  returns 0x00 (0000ms, 0796ms total)
T1760 001:221 JLINK_WriteReg(R15 (PC), 0x20000108)  returns 0x00 (0000ms, 0796ms total)
T1760 001:221 JLINK_WriteReg(XPSR, 0x01000000)  returns 0x00 (0000ms, 0796ms total)
T1760 001:221 JLINK_WriteReg(MSP, 0x20000800)  returns 0x00 (0000ms, 0796ms total)
T1760 001:221 JLINK_WriteReg(PSP, 0x20000800)  returns 0x00 (0000ms, 0796ms total)
T1760 001:221 JLINK_WriteReg(CFBP, 0x00000000)  returns 0x00 (0000ms, 0796ms total)
T1760 001:221 JLINK_SetBPEx(Addr = 0x20000000, Type = 0xFFFFFFF2)  returns 0x00000005 (0000ms, 0796ms total)
T1760 001:221 JLINK_Go() -- CPU_ReadMem(4 bytes @ 0xE0001000) (0003ms, 0799ms total)
T1760 001:224 JLINK_IsHalted()  returns FALSE (0001ms, 0800ms total)
T1760 001:235 JLINK_IsHalted() -- CPU_ReadMem(2 bytes @ 0x20000000)  returns TRUE (0005ms, 0804ms total)
T1760 001:240 JLINK_ReadReg(R15 (PC))  returns 0x20000000 (0000ms, 0799ms total)
T1760 001:240 JLINK_ClrBPEx(BPHandle = 0x00000005)  returns 0x00 (0000ms, 0799ms total)
T1760 001:240 JLINK_ReadReg(R0)  returns 0x00000000 (0000ms, 0799ms total)
T1760 001:240 JLINK_WriteMem(0x20000180, 0x0280 Bytes, ...) - Data: 10 F8 20 0C 08 B1 05 43 F1 E7 A8 07 01 D5 25 F0 ... -- CPU_WriteMem(640 bytes @ 0x20000180)  returns 0x280 (0005ms, 0804ms total)
T1760 001:245 JLINK_WriteMem(0x20000400, 0x0180 Bytes, ...) - Data: 11 44 40 F2 26 80 10 F0 03 0F 1E BF 11 F8 01 3D ... -- CPU_WriteMem(384 bytes @ 0x20000400)  returns 0x180 (0004ms, 0808ms total)
T1760 001:249 JLINK_WriteReg(R0, 0x08020400)  returns 0x00 (0000ms, 0808ms total)
T1760 001:249 JLINK_WriteReg(R1, 0x00000400)  returns 0x00 (0000ms, 0808ms total)
T1760 001:249 JLINK_WriteReg(R2, 0x20000180)  returns 0x00 (0000ms, 0808ms total)
T1760 001:249 JLINK_WriteReg(R3, 0x00000000)  returns 0x00 (0000ms, 0808ms total)
T1760 001:249 JLINK_WriteReg(R4, 0x00000000)  returns 0x00 (0000ms, 0808ms total)
T1760 001:249 JLINK_WriteReg(R5, 0x00000000)  returns 0x00 (0000ms, 0808ms total)
T1760 001:249 JLINK_WriteReg(R6, 0x00000000)  returns 0x00 (0000ms, 0808ms total)
T1760 001:249 JLINK_WriteReg(R7, 0x00000000)  returns 0x00 (0000ms, 0808ms total)
T1760 001:249 JLINK_WriteReg(R8, 0x00000000)  returns 0x00 (0000ms, 0808ms total)
T1760 001:249 JLINK_WriteReg(R9, 0x2000017C)  returns 0x00 (0000ms, 0808ms total)
T1760 001:249 JLINK_WriteReg(R10, 0x00000000)  returns 0x00 (0000ms, 0808ms total)
T1760 001:249 JLINK_WriteReg(R11, 0x00000000)  returns 0x00 (0000ms, 0808ms total)
T1760 001:249 JLINK_WriteReg(R12, 0x00000000)  returns 0x00 (0000ms, 0808ms total)
T1760 001:249 JLINK_WriteReg(R13 (SP), 0x20000800)  returns 0x00 (0000ms, 0808ms total)
T1760 001:249 JLINK_WriteReg(R14, 0x20000001)  returns 0x00 (0000ms, 0808ms total)
T1760 001:249 JLINK_WriteReg(R15 (PC), 0x20000108)  returns 0x00 (0000ms, 0808ms total)
T1760 001:249 JLINK_WriteReg(XPSR, 0x01000000)  returns 0x00 (0000ms, 0808ms total)
T1760 001:249 JLINK_WriteReg(MSP, 0x20000800)  returns 0x00 (0000ms, 0808ms total)
T1760 001:249 JLINK_WriteReg(PSP, 0x20000800)  returns 0x00 (0000ms, 0808ms total)
T1760 001:249 JLINK_WriteReg(CFBP, 0x00000000)  returns 0x00 (0000ms, 0808ms total)
T1760 001:249 JLINK_SetBPEx(Addr = 0x20000000, Type = 0xFFFFFFF2)  returns 0x00000006 (0000ms, 0808ms total)
T1760 001:249 JLINK_Go() -- CPU_ReadMem(4 bytes @ 0xE0001000) (0003ms, 0811ms total)
T1760 001:253 JLINK_IsHalted()  returns FALSE (0000ms, 0811ms total)
T1760 001:259 JLINK_IsHalted() -- CPU_ReadMem(2 bytes @ 0x20000000)  returns TRUE (0005ms, 0816ms total)
T1760 001:264 JLINK_ReadReg(R15 (PC))  returns 0x20000000 (0000ms, 0811ms total)
T1760 001:264 JLINK_ClrBPEx(BPHandle = 0x00000006)  returns 0x00 (0000ms, 0811ms total)
T1760 001:264 JLINK_ReadReg(R0)  returns 0x00000000 (0000ms, 0811ms total)
T1760 001:265 JLINK_WriteMem(0x20000180, 0x0280 Bytes, ...) - Data: 24 08 01 68 88 06 04 D5 E0 69 21 F0 10 01 21 60 ... -- CPU_WriteMem(640 bytes @ 0x20000180)  returns 0x280 (0005ms, 0816ms total)
T1760 001:270 JLINK_WriteMem(0x20000400, 0x0180 Bytes, ...) - Data: 81 07 01 D5 2B 20 02 E0 20 21 01 EA C0 00 03 2A ... -- CPU_WriteMem(384 bytes @ 0x20000400)  returns 0x180 (0003ms, 0819ms total)
T1760 001:273 JLINK_WriteReg(R0, 0x08020800)  returns 0x00 (0000ms, 0819ms total)
T1760 001:273 JLINK_WriteReg(R1, 0x00000400)  returns 0x00 (0000ms, 0819ms total)
T1760 001:273 JLINK_WriteReg(R2, 0x20000180)  returns 0x00 (0000ms, 0819ms total)
T1760 001:273 JLINK_WriteReg(R3, 0x00000000)  returns 0x00 (0000ms, 0819ms total)
T1760 001:273 JLINK_WriteReg(R4, 0x00000000)  returns 0x00 (0000ms, 0819ms total)
T1760 001:273 JLINK_WriteReg(R5, 0x00000000)  returns 0x00 (0000ms, 0819ms total)
T1760 001:273 JLINK_WriteReg(R6, 0x00000000)  returns 0x00 (0000ms, 0819ms total)
T1760 001:273 JLINK_WriteReg(R7, 0x00000000)  returns 0x00 (0000ms, 0819ms total)
T1760 001:273 JLINK_WriteReg(R8, 0x00000000)  returns 0x00 (0000ms, 0819ms total)
T1760 001:273 JLINK_WriteReg(R9, 0x2000017C)  returns 0x00 (0000ms, 0819ms total)
T1760 001:273 JLINK_WriteReg(R10, 0x00000000)  returns 0x00 (0000ms, 0819ms total)
T1760 001:273 JLINK_WriteReg(R11, 0x00000000)  returns 0x00 (0000ms, 0819ms total)
T1760 001:273 JLINK_WriteReg(R12, 0x00000000)  returns 0x00 (0000ms, 0819ms total)
T1760 001:273 JLINK_WriteReg(R13 (SP), 0x20000800)  returns 0x00 (0000ms, 0819ms total)
T1760 001:273 JLINK_WriteReg(R14, 0x20000001)  returns 0x00 (0000ms, 0819ms total)
T1760 001:273 JLINK_WriteReg(R15 (PC), 0x20000108)  returns 0x00 (0000ms, 0819ms total)
T1760 001:273 JLINK_WriteReg(XPSR, 0x01000000)  returns 0x00 (0000ms, 0819ms total)
T1760 001:273 JLINK_WriteReg(MSP, 0x20000800)  returns 0x00 (0000ms, 0819ms total)
T1760 001:273 JLINK_WriteReg(PSP, 0x20000800)  returns 0x00 (0000ms, 0819ms total)
T1760 001:273 JLINK_WriteReg(CFBP, 0x00000000)  returns 0x00 (0000ms, 0819ms total)
T1760 001:273 JLINK_SetBPEx(Addr = 0x20000000, Type = 0xFFFFFFF2)  returns 0x00000007 (0000ms, 0819ms total)
T1760 001:273 JLINK_Go() -- CPU_ReadMem(4 bytes @ 0xE0001000) (0004ms, 0823ms total)
T1760 001:277 JLINK_IsHalted()  returns FALSE (0001ms, 0824ms total)
T1760 001:281 JLINK_IsHalted() -- CPU_ReadMem(2 bytes @ 0x20000000)  returns TRUE (0005ms, 0828ms total)
T1760 001:286 JLINK_ReadReg(R15 (PC))  returns 0x20000000 (0000ms, 0823ms total)
T1760 001:286 JLINK_ClrBPEx(BPHandle = 0x00000007)  returns 0x00 (0000ms, 0823ms total)
T1760 001:286 JLINK_ReadReg(R0)  returns 0x00000000 (0000ms, 0823ms total)
T1760 001:287 JLINK_WriteMem(0x20000180, 0x0280 Bytes, ...) - Data: 45 21 00 E0 65 21 A0 F1 01 08 00 F8 01 1C 09 98 ... -- CPU_WriteMem(640 bytes @ 0x20000180)  returns 0x280 (0004ms, 0827ms total)
T1760 001:292 JLINK_WriteMem(0x20000400, 0x0180 Bytes, ...) - Data: 6E 61 6E 00 49 4E 46 00 69 6E 66 00 2D E9 F0 47 ... -- CPU_WriteMem(384 bytes @ 0x20000400)  returns 0x180 (0003ms, 0830ms total)
T1760 001:295 JLINK_WriteReg(R0, 0x08020C00)  returns 0x00 (0000ms, 0830ms total)
T1760 001:295 JLINK_WriteReg(R1, 0x00000400)  returns 0x00 (0000ms, 0830ms total)
T1760 001:295 JLINK_WriteReg(R2, 0x20000180)  returns 0x00 (0000ms, 0830ms total)
T1760 001:295 JLINK_WriteReg(R3, 0x00000000)  returns 0x00 (0000ms, 0830ms total)
T1760 001:295 JLINK_WriteReg(R4, 0x00000000)  returns 0x00 (0000ms, 0830ms total)
T1760 001:295 JLINK_WriteReg(R5, 0x00000000)  returns 0x00 (0000ms, 0830ms total)
T1760 001:295 JLINK_WriteReg(R6, 0x00000000)  returns 0x00 (0000ms, 0830ms total)
T1760 001:295 JLINK_WriteReg(R7, 0x00000000)  returns 0x00 (0000ms, 0830ms total)
T1760 001:295 JLINK_WriteReg(R8, 0x00000000)  returns 0x00 (0000ms, 0830ms total)
T1760 001:295 JLINK_WriteReg(R9, 0x2000017C)  returns 0x00 (0000ms, 0830ms total)
T1760 001:295 JLINK_WriteReg(R10, 0x00000000)  returns 0x00 (0000ms, 0830ms total)
T1760 001:295 JLINK_WriteReg(R11, 0x00000000)  returns 0x00 (0000ms, 0830ms total)
T1760 001:295 JLINK_WriteReg(R12, 0x00000000)  returns 0x00 (0000ms, 0830ms total)
T1760 001:295 JLINK_WriteReg(R13 (SP), 0x20000800)  returns 0x00 (0000ms, 0830ms total)
T1760 001:295 JLINK_WriteReg(R14, 0x20000001)  returns 0x00 (0000ms, 0830ms total)
T1760 001:295 JLINK_WriteReg(R15 (PC), 0x20000108)  returns 0x00 (0000ms, 0830ms total)
T1760 001:295 JLINK_WriteReg(XPSR, 0x01000000)  returns 0x00 (0000ms, 0830ms total)
T1760 001:295 JLINK_WriteReg(MSP, 0x20000800)  returns 0x00 (0000ms, 0830ms total)
T1760 001:295 JLINK_WriteReg(PSP, 0x20000800)  returns 0x00 (0000ms, 0830ms total)
T1760 001:295 JLINK_WriteReg(CFBP, 0x00000000)  returns 0x00 (0000ms, 0830ms total)
T1760 001:295 JLINK_SetBPEx(Addr = 0x20000000, Type = 0xFFFFFFF2)  returns 0x00000008 (0000ms, 0830ms total)
T1760 001:295 JLINK_Go() -- CPU_ReadMem(4 bytes @ 0xE0001000) (0004ms, 0834ms total)
T1760 001:299 JLINK_IsHalted()  returns FALSE (0001ms, 0835ms total)
T1760 001:304 JLINK_IsHalted() -- CPU_ReadMem(2 bytes @ 0x20000000)  returns TRUE (0005ms, 0839ms total)
T1760 001:309 JLINK_ReadReg(R15 (PC))  returns 0x20000000 (0000ms, 0834ms total)
T1760 001:309 JLINK_ClrBPEx(BPHandle = 0x00000008)  returns 0x00 (0000ms, 0834ms total)
T1760 001:309 JLINK_ReadReg(R0)  returns 0x00000000 (0000ms, 0834ms total)
T1760 001:309 JLINK_WriteMem(0x20000180, 0x0280 Bytes, ...) - Data: 93 43 13 EA CC 13 0B D1 50 F8 04 2B 51 F8 04 3B ... -- CPU_WriteMem(640 bytes @ 0x20000180)  returns 0x280 (0005ms, 0839ms total)
T1760 001:314 JLINK_WriteMem(0x20000400, 0x0180 Bytes, ...) - Data: 0C FB 0E F7 B0 EB 07 40 72 EB 17 42 0C FB 08 F7 ... -- CPU_WriteMem(384 bytes @ 0x20000400)  returns 0x180 (0003ms, 0842ms total)
T1760 001:317 JLINK_WriteReg(R0, 0x08021000)  returns 0x00 (0000ms, 0842ms total)
T1760 001:317 JLINK_WriteReg(R1, 0x00000400)  returns 0x00 (0000ms, 0842ms total)
T1760 001:317 JLINK_WriteReg(R2, 0x20000180)  returns 0x00 (0000ms, 0842ms total)
T1760 001:317 JLINK_WriteReg(R3, 0x00000000)  returns 0x00 (0000ms, 0842ms total)
T1760 001:317 JLINK_WriteReg(R4, 0x00000000)  returns 0x00 (0000ms, 0842ms total)
T1760 001:317 JLINK_WriteReg(R5, 0x00000000)  returns 0x00 (0000ms, 0842ms total)
T1760 001:317 JLINK_WriteReg(R6, 0x00000000)  returns 0x00 (0000ms, 0842ms total)
T1760 001:317 JLINK_WriteReg(R7, 0x00000000)  returns 0x00 (0000ms, 0842ms total)
T1760 001:317 JLINK_WriteReg(R8, 0x00000000)  returns 0x00 (0000ms, 0842ms total)
T1760 001:317 JLINK_WriteReg(R9, 0x2000017C)  returns 0x00 (0000ms, 0842ms total)
T1760 001:317 JLINK_WriteReg(R10, 0x00000000)  returns 0x00 (0000ms, 0842ms total)
T1760 001:317 JLINK_WriteReg(R11, 0x00000000)  returns 0x00 (0000ms, 0842ms total)
T1760 001:317 JLINK_WriteReg(R12, 0x00000000)  returns 0x00 (0000ms, 0842ms total)
T1760 001:317 JLINK_WriteReg(R13 (SP), 0x20000800)  returns 0x00 (0000ms, 0842ms total)
T1760 001:317 JLINK_WriteReg(R14, 0x20000001)  returns 0x00 (0000ms, 0842ms total)
T1760 001:317 JLINK_WriteReg(R15 (PC), 0x20000108)  returns 0x00 (0000ms, 0842ms total)
T1760 001:317 JLINK_WriteReg(XPSR, 0x01000000)  returns 0x00 (0000ms, 0842ms total)
T1760 001:317 JLINK_WriteReg(MSP, 0x20000800)  returns 0x00 (0000ms, 0842ms total)
T1760 001:317 JLINK_WriteReg(PSP, 0x20000800)  returns 0x00 (0000ms, 0842ms total)
T1760 001:317 JLINK_WriteReg(CFBP, 0x00000000)  returns 0x00 (0000ms, 0842ms total)
T1760 001:317 JLINK_SetBPEx(Addr = 0x20000000, Type = 0xFFFFFFF2)  returns 0x00000009 (0000ms, 0842ms total)
T1760 001:317 JLINK_Go() -- CPU_ReadMem(4 bytes @ 0xE0001000) (0004ms, 0846ms total)
T1760 001:321 JLINK_IsHalted()  returns FALSE (0001ms, 0847ms total)
T1760 001:326 JLINK_IsHalted() -- CPU_ReadMem(2 bytes @ 0x20000000)  returns TRUE (0005ms, 0851ms total)
T1760 001:331 JLINK_ReadReg(R15 (PC))  returns 0x20000000 (0000ms, 0846ms total)
T1760 001:331 JLINK_ClrBPEx(BPHandle = 0x00000009)  returns 0x00 (0000ms, 0846ms total)
T1760 001:331 JLINK_ReadReg(R0)  returns 0x00000000 (0000ms, 0846ms total)
T1760 001:332 JLINK_WriteMem(0x20000180, 0x0280 Bytes, ...) - Data: 7F 7E 7D 7C 7B 7A 79 78 77 76 76 75 74 73 72 71 ... -- CPU_WriteMem(640 bytes @ 0x20000180)  returns 0x280 (0005ms, 0851ms total)
T1760 001:337 JLINK_WriteMem(0x20000400, 0x0180 Bytes, ...) - Data: 04 FB 07 62 2C EA 07 4C 05 FB 07 F7 0C FB 05 F6 ... -- CPU_WriteMem(384 bytes @ 0x20000400)  returns 0x180 (0003ms, 0854ms total)
T1760 001:340 JLINK_WriteReg(R0, 0x08021400)  returns 0x00 (0000ms, 0854ms total)
T1760 001:340 JLINK_WriteReg(R1, 0x00000400)  returns 0x00 (0000ms, 0854ms total)
T1760 001:340 JLINK_WriteReg(R2, 0x20000180)  returns 0x00 (0000ms, 0854ms total)
T1760 001:340 JLINK_WriteReg(R3, 0x00000000)  returns 0x00 (0000ms, 0854ms total)
T1760 001:340 JLINK_WriteReg(R4, 0x00000000)  returns 0x00 (0000ms, 0854ms total)
T1760 001:340 JLINK_WriteReg(R5, 0x00000000)  returns 0x00 (0000ms, 0854ms total)
T1760 001:340 JLINK_WriteReg(R6, 0x00000000)  returns 0x00 (0000ms, 0854ms total)
T1760 001:340 JLINK_WriteReg(R7, 0x00000000)  returns 0x00 (0000ms, 0854ms total)
T1760 001:340 JLINK_WriteReg(R8, 0x00000000)  returns 0x00 (0000ms, 0854ms total)
T1760 001:340 JLINK_WriteReg(R9, 0x2000017C)  returns 0x00 (0000ms, 0854ms total)
T1760 001:340 JLINK_WriteReg(R10, 0x00000000)  returns 0x00 (0000ms, 0854ms total)
T1760 001:340 JLINK_WriteReg(R11, 0x00000000)  returns 0x00 (0000ms, 0854ms total)
T1760 001:340 JLINK_WriteReg(R12, 0x00000000)  returns 0x00 (0000ms, 0854ms total)
T1760 001:340 JLINK_WriteReg(R13 (SP), 0x20000800)  returns 0x00 (0000ms, 0854ms total)
T1760 001:340 JLINK_WriteReg(R14, 0x20000001)  returns 0x00 (0000ms, 0854ms total)
T1760 001:340 JLINK_WriteReg(R15 (PC), 0x20000108)  returns 0x00 (0000ms, 0854ms total)
T1760 001:340 JLINK_WriteReg(XPSR, 0x01000000)  returns 0x00 (0000ms, 0854ms total)
T1760 001:340 JLINK_WriteReg(MSP, 0x20000800)  returns 0x00 (0000ms, 0854ms total)
T1760 001:340 JLINK_WriteReg(PSP, 0x20000800)  returns 0x00 (0000ms, 0854ms total)
T1760 001:340 JLINK_WriteReg(CFBP, 0x00000000)  returns 0x00 (0000ms, 0854ms total)
T1760 001:340 JLINK_SetBPEx(Addr = 0x20000000, Type = 0xFFFFFFF2)  returns 0x0000000A (0000ms, 0854ms total)
T1760 001:340 JLINK_Go() -- CPU_ReadMem(4 bytes @ 0xE0001000) (0004ms, 0858ms total)
T1760 001:344 JLINK_IsHalted()  returns FALSE (0001ms, 0859ms total)
T1760 001:353 JLINK_IsHalted() -- CPU_ReadMem(2 bytes @ 0x20000000)  returns TRUE (0005ms, 0863ms total)
T1760 001:358 JLINK_ReadReg(R15 (PC))  returns 0x20000000 (0000ms, 0858ms total)
T1760 001:358 JLINK_ClrBPEx(BPHandle = 0x0000000A)  returns 0x00 (0000ms, 0858ms total)
T1760 001:358 JLINK_ReadReg(R0)  returns 0x00000000 (0000ms, 0858ms total)
T1760 001:359 JLINK_WriteMem(0x20000180, 0x0280 Bytes, ...) - Data: 8D F8 05 00 01 20 8D F8 04 00 00 20 8D F8 06 00 ... -- CPU_WriteMem(640 bytes @ 0x20000180)  returns 0x280 (0004ms, 0862ms total)
T1760 001:364 JLINK_WriteMem(0x20000400, 0x0180 Bytes, ...) - Data: 1C 49 08 80 BD F8 08 20 21 78 13 48 10 30 00 EB ... -- CPU_WriteMem(384 bytes @ 0x20000400)  returns 0x180 (0003ms, 0865ms total)
T1760 001:367 JLINK_WriteReg(R0, 0x08021800)  returns 0x00 (0000ms, 0865ms total)
T1760 001:367 JLINK_WriteReg(R1, 0x00000400)  returns 0x00 (0000ms, 0865ms total)
T1760 001:367 JLINK_WriteReg(R2, 0x20000180)  returns 0x00 (0000ms, 0865ms total)
T1760 001:367 JLINK_WriteReg(R3, 0x00000000)  returns 0x00 (0000ms, 0865ms total)
T1760 001:367 JLINK_WriteReg(R4, 0x00000000)  returns 0x00 (0000ms, 0865ms total)
T1760 001:367 JLINK_WriteReg(R5, 0x00000000)  returns 0x00 (0000ms, 0865ms total)
T1760 001:367 JLINK_WriteReg(R6, 0x00000000)  returns 0x00 (0000ms, 0865ms total)
T1760 001:367 JLINK_WriteReg(R7, 0x00000000)  returns 0x00 (0000ms, 0865ms total)
T1760 001:367 JLINK_WriteReg(R8, 0x00000000)  returns 0x00 (0000ms, 0865ms total)
T1760 001:367 JLINK_WriteReg(R9, 0x2000017C)  returns 0x00 (0000ms, 0865ms total)
T1760 001:367 JLINK_WriteReg(R10, 0x00000000)  returns 0x00 (0000ms, 0865ms total)
T1760 001:367 JLINK_WriteReg(R11, 0x00000000)  returns 0x00 (0000ms, 0865ms total)
T1760 001:367 JLINK_WriteReg(R12, 0x00000000)  returns 0x00 (0000ms, 0865ms total)
T1760 001:367 JLINK_WriteReg(R13 (SP), 0x20000800)  returns 0x00 (0000ms, 0865ms total)
T1760 001:367 JLINK_WriteReg(R14, 0x20000001)  returns 0x00 (0000ms, 0865ms total)
T1760 001:367 JLINK_WriteReg(R15 (PC), 0x20000108)  returns 0x00 (0000ms, 0865ms total)
T1760 001:367 JLINK_WriteReg(XPSR, 0x01000000)  returns 0x00 (0000ms, 0865ms total)
T1760 001:367 JLINK_WriteReg(MSP, 0x20000800)  returns 0x00 (0000ms, 0865ms total)
T1760 001:367 JLINK_WriteReg(PSP, 0x20000800)  returns 0x00 (0000ms, 0865ms total)
T1760 001:367 JLINK_WriteReg(CFBP, 0x00000000)  returns 0x00 (0000ms, 0865ms total)
T1760 001:367 JLINK_SetBPEx(Addr = 0x20000000, Type = 0xFFFFFFF2)  returns 0x0000000B (0000ms, 0865ms total)
T1760 001:367 JLINK_Go() -- CPU_ReadMem(4 bytes @ 0xE0001000) (0004ms, 0869ms total)
T1760 001:371 JLINK_IsHalted()  returns FALSE (0001ms, 0870ms total)
T1760 001:380 JLINK_IsHalted() -- CPU_ReadMem(2 bytes @ 0x20000000)  returns TRUE (0005ms, 0874ms total)
T1760 001:385 JLINK_ReadReg(R15 (PC))  returns 0x20000000 (0000ms, 0869ms total)
T1760 001:385 JLINK_ClrBPEx(BPHandle = 0x0000000B)  returns 0x00 (0000ms, 0869ms total)
T1760 001:385 JLINK_ReadReg(R0)  returns 0x00000000 (0000ms, 0869ms total)
T1760 001:385 JLINK_WriteMem(0x20000180, 0x0280 Bytes, ...) - Data: D1 F8 01 21 38 46 00 F0 57 F8 1B B0 F0 BD 00 00 ... -- CPU_WriteMem(640 bytes @ 0x20000180)  returns 0x280 (0005ms, 0874ms total)
T1760 001:390 JLINK_WriteMem(0x20000400, 0x0180 Bytes, ...) - Data: 44 D0 41 F2 88 30 04 29 66 D0 05 29 6C D0 06 29 ... -- CPU_WriteMem(384 bytes @ 0x20000400)  returns 0x180 (0003ms, 0877ms total)
T1760 001:393 JLINK_WriteReg(R0, 0x08021C00)  returns 0x00 (0000ms, 0877ms total)
T1760 001:393 JLINK_WriteReg(R1, 0x00000400)  returns 0x00 (0000ms, 0877ms total)
T1760 001:393 JLINK_WriteReg(R2, 0x20000180)  returns 0x00 (0000ms, 0877ms total)
T1760 001:393 JLINK_WriteReg(R3, 0x00000000)  returns 0x00 (0000ms, 0877ms total)
T1760 001:393 JLINK_WriteReg(R4, 0x00000000)  returns 0x00 (0000ms, 0877ms total)
T1760 001:393 JLINK_WriteReg(R5, 0x00000000)  returns 0x00 (0000ms, 0877ms total)
T1760 001:393 JLINK_WriteReg(R6, 0x00000000)  returns 0x00 (0000ms, 0877ms total)
T1760 001:393 JLINK_WriteReg(R7, 0x00000000)  returns 0x00 (0000ms, 0877ms total)
T1760 001:393 JLINK_WriteReg(R8, 0x00000000)  returns 0x00 (0000ms, 0877ms total)
T1760 001:393 JLINK_WriteReg(R9, 0x2000017C)  returns 0x00 (0000ms, 0877ms total)
T1760 001:393 JLINK_WriteReg(R10, 0x00000000)  returns 0x00 (0000ms, 0877ms total)
T1760 001:393 JLINK_WriteReg(R11, 0x00000000)  returns 0x00 (0000ms, 0877ms total)
T1760 001:393 JLINK_WriteReg(R12, 0x00000000)  returns 0x00 (0000ms, 0877ms total)
T1760 001:393 JLINK_WriteReg(R13 (SP), 0x20000800)  returns 0x00 (0000ms, 0877ms total)
T1760 001:393 JLINK_WriteReg(R14, 0x20000001)  returns 0x00 (0000ms, 0877ms total)
T1760 001:393 JLINK_WriteReg(R15 (PC), 0x20000108)  returns 0x00 (0000ms, 0877ms total)
T1760 001:393 JLINK_WriteReg(XPSR, 0x01000000)  returns 0x00 (0000ms, 0877ms total)
T1760 001:393 JLINK_WriteReg(MSP, 0x20000800)  returns 0x00 (0000ms, 0877ms total)
T1760 001:393 JLINK_WriteReg(PSP, 0x20000800)  returns 0x00 (0000ms, 0877ms total)
T1760 001:393 JLINK_WriteReg(CFBP, 0x00000000)  returns 0x00 (0000ms, 0877ms total)
T1760 001:393 JLINK_SetBPEx(Addr = 0x20000000, Type = 0xFFFFFFF2)  returns 0x0000000C (0000ms, 0877ms total)
T1760 001:393 JLINK_Go() -- CPU_ReadMem(4 bytes @ 0xE0001000) (0004ms, 0881ms total)
T1760 001:397 JLINK_IsHalted()  returns FALSE (0001ms, 0882ms total)
T1760 001:402 JLINK_IsHalted() -- CPU_ReadMem(2 bytes @ 0x20000000)  returns TRUE (0005ms, 0886ms total)
T1760 001:407 JLINK_ReadReg(R15 (PC))  returns 0x20000000 (0000ms, 0881ms total)
T1760 001:407 JLINK_ClrBPEx(BPHandle = 0x0000000C)  returns 0x00 (0000ms, 0881ms total)
T1760 001:407 JLINK_ReadReg(R0)  returns 0x00000000 (0000ms, 0881ms total)
T1760 001:408 JLINK_WriteMem(0x20000180, 0x0280 Bytes, ...) - Data: 41 1A 80 EE 81 0A 00 EE 90 0A B8 EE 60 1A 00 EE ... -- CPU_WriteMem(640 bytes @ 0x20000180)  returns 0x280 (0004ms, 0885ms total)
T1760 001:413 JLINK_WriteMem(0x20000400, 0x0180 Bytes, ...) - Data: 00 10 D9 48 E9 61 00 88 02 EE 10 1A B8 EE 40 0A ... -- CPU_WriteMem(384 bytes @ 0x20000400)  returns 0x180 (0003ms, 0889ms total)
T1760 001:416 JLINK_WriteReg(R0, 0x08022000)  returns 0x00 (0000ms, 0889ms total)
T1760 001:416 JLINK_WriteReg(R1, 0x00000400)  returns 0x00 (0000ms, 0889ms total)
T1760 001:416 JLINK_WriteReg(R2, 0x20000180)  returns 0x00 (0000ms, 0889ms total)
T1760 001:416 JLINK_WriteReg(R3, 0x00000000)  returns 0x00 (0000ms, 0889ms total)
T1760 001:416 JLINK_WriteReg(R4, 0x00000000)  returns 0x00 (0000ms, 0889ms total)
T1760 001:416 JLINK_WriteReg(R5, 0x00000000)  returns 0x00 (0000ms, 0889ms total)
T1760 001:416 JLINK_WriteReg(R6, 0x00000000)  returns 0x00 (0000ms, 0889ms total)
T1760 001:416 JLINK_WriteReg(R7, 0x00000000)  returns 0x00 (0000ms, 0889ms total)
T1760 001:416 JLINK_WriteReg(R8, 0x00000000)  returns 0x00 (0000ms, 0889ms total)
T1760 001:416 JLINK_WriteReg(R9, 0x2000017C)  returns 0x00 (0000ms, 0889ms total)
T1760 001:416 JLINK_WriteReg(R10, 0x00000000)  returns 0x00 (0000ms, 0889ms total)
T1760 001:416 JLINK_WriteReg(R11, 0x00000000)  returns 0x00 (0000ms, 0889ms total)
T1760 001:416 JLINK_WriteReg(R12, 0x00000000)  returns 0x00 (0000ms, 0889ms total)
T1760 001:416 JLINK_WriteReg(R13 (SP), 0x20000800)  returns 0x00 (0000ms, 0889ms total)
T1760 001:416 JLINK_WriteReg(R14, 0x20000001)  returns 0x00 (0000ms, 0889ms total)
T1760 001:416 JLINK_WriteReg(R15 (PC), 0x20000108)  returns 0x00 (0000ms, 0889ms total)
T1760 001:416 JLINK_WriteReg(XPSR, 0x01000000)  returns 0x00 (0000ms, 0889ms total)
T1760 001:416 JLINK_WriteReg(MSP, 0x20000800)  returns 0x00 (0000ms, 0889ms total)
T1760 001:416 JLINK_WriteReg(PSP, 0x20000800)  returns 0x00 (0000ms, 0889ms total)
T1760 001:416 JLINK_WriteReg(CFBP, 0x00000000)  returns 0x00 (0000ms, 0889ms total)
T1760 001:416 JLINK_SetBPEx(Addr = 0x20000000, Type = 0xFFFFFFF2)  returns 0x0000000D (0000ms, 0889ms total)
T1760 001:416 JLINK_Go() -- CPU_ReadMem(4 bytes @ 0xE0001000) (0004ms, 0893ms total)
T1760 001:420 JLINK_IsHalted()  returns FALSE (0001ms, 0894ms total)
T1760 001:425 JLINK_IsHalted() -- CPU_ReadMem(2 bytes @ 0x20000000)  returns TRUE (0005ms, 0898ms total)
T1760 001:430 JLINK_ReadReg(R15 (PC))  returns 0x20000000 (0000ms, 0893ms total)
T1760 001:430 JLINK_ClrBPEx(BPHandle = 0x0000000D)  returns 0x00 (0000ms, 0893ms total)
T1760 001:430 JLINK_ReadReg(R0)  returns 0x00000000 (0000ms, 0893ms total)
T1760 001:430 JLINK_WriteMem(0x20000180, 0x0280 Bytes, ...) - Data: F4 B1 06 29 51 D0 07 29 6F D0 08 29 6C D0 09 29 ... -- CPU_WriteMem(640 bytes @ 0x20000180)  returns 0x280 (0005ms, 0898ms total)
T1760 001:435 JLINK_WriteMem(0x20000400, 0x0180 Bytes, ...) - Data: 01 D2 07 48 01 E0 05 48 10 38 06 4A 8B 00 01 EA ... -- CPU_WriteMem(384 bytes @ 0x20000400)  returns 0x180 (0004ms, 0902ms total)
T1760 001:439 JLINK_WriteReg(R0, 0x08022400)  returns 0x00 (0000ms, 0902ms total)
T1760 001:439 JLINK_WriteReg(R1, 0x00000400)  returns 0x00 (0000ms, 0902ms total)
T1760 001:439 JLINK_WriteReg(R2, 0x20000180)  returns 0x00 (0000ms, 0902ms total)
T1760 001:439 JLINK_WriteReg(R3, 0x00000000)  returns 0x00 (0000ms, 0902ms total)
T1760 001:439 JLINK_WriteReg(R4, 0x00000000)  returns 0x00 (0000ms, 0902ms total)
T1760 001:439 JLINK_WriteReg(R5, 0x00000000)  returns 0x00 (0000ms, 0902ms total)
T1760 001:439 JLINK_WriteReg(R6, 0x00000000)  returns 0x00 (0000ms, 0902ms total)
T1760 001:439 JLINK_WriteReg(R7, 0x00000000)  returns 0x00 (0000ms, 0902ms total)
T1760 001:439 JLINK_WriteReg(R8, 0x00000000)  returns 0x00 (0000ms, 0902ms total)
T1760 001:439 JLINK_WriteReg(R9, 0x2000017C)  returns 0x00 (0000ms, 0902ms total)
T1760 001:439 JLINK_WriteReg(R10, 0x00000000)  returns 0x00 (0000ms, 0902ms total)
T1760 001:439 JLINK_WriteReg(R11, 0x00000000)  returns 0x00 (0000ms, 0902ms total)
T1760 001:439 JLINK_WriteReg(R12, 0x00000000)  returns 0x00 (0000ms, 0902ms total)
T1760 001:439 JLINK_WriteReg(R13 (SP), 0x20000800)  returns 0x00 (0000ms, 0902ms total)
T1760 001:439 JLINK_WriteReg(R14, 0x20000001)  returns 0x00 (0000ms, 0902ms total)
T1760 001:439 JLINK_WriteReg(R15 (PC), 0x20000108)  returns 0x00 (0000ms, 0902ms total)
T1760 001:439 JLINK_WriteReg(XPSR, 0x01000000)  returns 0x00 (0000ms, 0902ms total)
T1760 001:439 JLINK_WriteReg(MSP, 0x20000800)  returns 0x00 (0000ms, 0902ms total)
T1760 001:439 JLINK_WriteReg(PSP, 0x20000800)  returns 0x00 (0000ms, 0902ms total)
T1760 001:439 JLINK_WriteReg(CFBP, 0x00000000)  returns 0x00 (0000ms, 0902ms total)
T1760 001:439 JLINK_SetBPEx(Addr = 0x20000000, Type = 0xFFFFFFF2)  returns 0x0000000E (0000ms, 0902ms total)
T1760 001:439 JLINK_Go() -- CPU_ReadMem(4 bytes @ 0xE0001000) (0003ms, 0905ms total)
T1760 001:442 JLINK_IsHalted()  returns FALSE (0001ms, 0906ms total)
T1760 001:448 JLINK_IsHalted() -- CPU_ReadMem(2 bytes @ 0x20000000)  returns TRUE (0005ms, 0910ms total)
T1760 001:453 JLINK_ReadReg(R15 (PC))  returns 0x20000000 (0000ms, 0905ms total)
T1760 001:453 JLINK_ClrBPEx(BPHandle = 0x0000000E)  returns 0x00 (0000ms, 0905ms total)
T1760 001:453 JLINK_ReadReg(R0)  returns 0x00000000 (0000ms, 0905ms total)
T1760 001:454 JLINK_WriteMem(0x20000180, 0x0280 Bytes, ...) - Data: 40 0F 00 20 00 00 3D 20 10 64 02 40 40 68 80 B2 ... -- CPU_WriteMem(640 bytes @ 0x20000180)  returns 0x280 (0005ms, 0910ms total)
T1760 001:459 JLINK_WriteMem(0x20000400, 0x0180 Bytes, ...) - Data: 09 4D 8D F8 06 00 4F F4 80 64 69 46 28 46 00 94 ... -- CPU_WriteMem(384 bytes @ 0x20000400)  returns 0x180 (0003ms, 0913ms total)
T1760 001:462 JLINK_WriteReg(R0, 0x08022800)  returns 0x00 (0000ms, 0913ms total)
T1760 001:462 JLINK_WriteReg(R1, 0x00000400)  returns 0x00 (0000ms, 0913ms total)
T1760 001:462 JLINK_WriteReg(R2, 0x20000180)  returns 0x00 (0000ms, 0913ms total)
T1760 001:462 JLINK_WriteReg(R3, 0x00000000)  returns 0x00 (0000ms, 0913ms total)
T1760 001:462 JLINK_WriteReg(R4, 0x00000000)  returns 0x00 (0000ms, 0913ms total)
T1760 001:462 JLINK_WriteReg(R5, 0x00000000)  returns 0x00 (0000ms, 0913ms total)
T1760 001:462 JLINK_WriteReg(R6, 0x00000000)  returns 0x00 (0000ms, 0913ms total)
T1760 001:462 JLINK_WriteReg(R7, 0x00000000)  returns 0x00 (0000ms, 0913ms total)
T1760 001:462 JLINK_WriteReg(R8, 0x00000000)  returns 0x00 (0000ms, 0913ms total)
T1760 001:462 JLINK_WriteReg(R9, 0x2000017C)  returns 0x00 (0000ms, 0913ms total)
T1760 001:462 JLINK_WriteReg(R10, 0x00000000)  returns 0x00 (0000ms, 0913ms total)
T1760 001:462 JLINK_WriteReg(R11, 0x00000000)  returns 0x00 (0000ms, 0913ms total)
T1760 001:462 JLINK_WriteReg(R12, 0x00000000)  returns 0x00 (0000ms, 0913ms total)
T1760 001:462 JLINK_WriteReg(R13 (SP), 0x20000800)  returns 0x00 (0000ms, 0913ms total)
T1760 001:462 JLINK_WriteReg(R14, 0x20000001)  returns 0x00 (0000ms, 0913ms total)
T1760 001:462 JLINK_WriteReg(R15 (PC), 0x20000108)  returns 0x00 (0000ms, 0913ms total)
T1760 001:462 JLINK_WriteReg(XPSR, 0x01000000)  returns 0x00 (0000ms, 0913ms total)
T1760 001:462 JLINK_WriteReg(MSP, 0x20000800)  returns 0x00 (0000ms, 0913ms total)
T1760 001:462 JLINK_WriteReg(PSP, 0x20000800)  returns 0x00 (0000ms, 0913ms total)
T1760 001:462 JLINK_WriteReg(CFBP, 0x00000000)  returns 0x00 (0000ms, 0913ms total)
T1760 001:462 JLINK_SetBPEx(Addr = 0x20000000, Type = 0xFFFFFFF2)  returns 0x0000000F (0000ms, 0913ms total)
T1760 001:462 JLINK_Go() -- CPU_ReadMem(4 bytes @ 0xE0001000) (0004ms, 0917ms total)
T1760 001:466 JLINK_IsHalted()  returns FALSE (0001ms, 0918ms total)
T1760 001:475 JLINK_IsHalted() -- CPU_ReadMem(2 bytes @ 0x20000000)  returns TRUE (0005ms, 0922ms total)
T1760 001:480 JLINK_ReadReg(R15 (PC))  returns 0x20000000 (0000ms, 0917ms total)
T1760 001:480 JLINK_ClrBPEx(BPHandle = 0x0000000F)  returns 0x00 (0000ms, 0917ms total)
